
T18B4 000:299 SEGGER J-Link V5.00l Log File (0001ms, 0273ms total)
T18B4 000:299 DLL Compiled: Aug  7 2015 15:52:45 (0001ms, 0273ms total)
T18B4 000:299 Logging started @ 2017-01-27 17:24 (0001ms, 0273ms total)
T18B4 000:300 JLINK_SetWarnOutHandler(...) (0000ms, 0273ms total)
T18B4 000:300 JLINK_OpenEx(...)
Firmware: J-Link V10 compiled Sep  1 2016 18:29:58
Hardware: V10.10
S/N: 50103721
Feature(s): GDB  returns O.K. (0269ms, 0542ms total)
T18B4 000:569 JLINK_SetErrorOutHandler(...) (0000ms, 0542ms total)
T18B4 000:569 JLINK_ExecCommand("ProjectFile = "D:\work\Keil\mobiledetector\mobiledetector_r2 - копия - копия\MDK-ARM\JLinkSettings.ini"", ...)  returns 0x00 (0000ms, 0542ms total)
T18B4 000:569 JLINK_ExecCommand("Device = STM32L152C6", ...)Device "STM32L152C6" selected.  returns 0x00 (0001ms, 0543ms total)
T18B4 000:570 JLINK_ExecCommand("DisableConnectionTimeout", ...)  returns 0x01 (0000ms, 0543ms total)
T18B4 000:570 JLINK_GetHardwareVersion()  returns 0x18A88 (0000ms, 0543ms total)
T18B4 000:570 JLINK_GetDLLVersion()  returns 50012 (0000ms, 0543ms total)
T18B4 000:570 JLINK_GetFirmwareString(...) (0000ms, 0543ms total)
T18B4 000:572 JLINK_GetDLLVersion()  returns 50012 (0000ms, 0543ms total)
T18B4 000:572 JLINK_GetCompileDateTime() (0000ms, 0543ms total)
T18B4 000:572 JLINK_GetFirmwareString(...) (0000ms, 0543ms total)
T18B4 000:572 JLINK_GetHardwareVersion()  returns 0x18A88 (0000ms, 0543ms total)
T18B4 000:573 JLINK_TIF_Select(JLINKARM_TIF_SWD)  returns 0x00 (0001ms, 0544ms total)
T18B4 000:574 JLINK_SetSpeed(10000) (0001ms, 0545ms total)
T18B4 000:575 JLINK_GetId() >0x108 TIF>Found SWD-DP with ID 0x2BA01477 >0x0D TIF> >0x28 TIF> >0x0D TIF> >0x28 TIF> >0x0D TIF> >0x21 TIF> >0x0D TIF> >0x28 TIF> >0x0D TIF> >0x28 TIF> >0x0D TIF> >0x28 TIF> >0x0D TIF> >0x0D TIF> >0x21 TIF> >0x0D TIF> >0x21 TIF> >0x0D TIF> >0x28 TIF> >0x0D TIF> >0x0D TIF> >0x21 TIF> >0x0D TIF> >0x21 TIF> >0x0D TIF> >0x28 TIF> >0x0D TIF> >0x0D TIF> >0x21 TIF> >0x0D TIF> >0x21 TIF> >0x108 TIF>Found SWD-DP with ID 0x2BA01477 >0x0D TIF> >0x21 TIF> >0x0D TIF> >0x28 TIF> >0x0D TIF>
 >0x28 TIF> >0x0D TIF> >0x21 TIF> >0x0D TIF> >0x28 TIF> >0x0D TIF> >0x21 TIF> >0x0D TIF> >0x21 TIF> >0x0D TIF> >0x21 TIF> >0x0D TIF> >0x21 TIF> >0x0D TIF> >0x28 TIF> >0x0D TIF> >0x28 TIF> >0x0D TIF> >0x21 TIF> >0x0D TIF> >0x28 TIF> >0x0D TIF> >0x28 TIF> >0x0D TIF> >0x28 TIF> >0x0D TIF> >0x0D TIF> >0x21 TIF> >0x0D TIF> >0x21 TIF> >0x0D TIF> >0x28 TIF> >0x0D TIF> >0x0D TIF> >0x21 TIF> >0x0D TIF> >0x21 TIF>Found Cortex-M3 r2p0, Little endian. -- CPU_WriteMem(4 bytes @ 0xE0002000)
 -- CPU_ReadMem(4 bytes @ 0xE000EDF0) -- CPU_ReadMem(4 bytes @ 0xE0002000)FPUnit: 6 code (BP) slots and 2 literal slots -- CPU_ReadMem(4 bytes @ 0xE000EDFC) -- CPU_ReadMem(4 bytes @ 0xE0001000) -- CPU_WriteMem(4 bytes @ 0xE0001000) -- CPU_ReadMem(4 bytes @ 0xE000ED88) -- CPU_WriteMem(4 bytes @ 0xE000ED88) -- CPU_ReadMem(4 bytes @ 0xE000ED88) -- CPU_WriteMem(4 bytes @ 0xE000ED88)CoreSight components:ROMTbl 0 @ E00FF000 -- CPU_ReadMem(16 bytes @ 0xE00FF000) -- CPU_ReadMem(16 bytes @ 0xE000EFF0)
 -- CPU_ReadMem(16 bytes @ 0xE000EFE0)ROMTbl 0 [0]: FFF0F000, CID: B105E00D, PID: 002BB000 SCS -- CPU_ReadMem(16 bytes @ 0xE0001FF0) -- CPU_ReadMem(16 bytes @ 0xE0001FE0)ROMTbl 0 [1]: FFF02000, CID: B105E00D, PID: 002BB002 DWT -- CPU_ReadMem(16 bytes @ 0xE0002FF0) -- CPU_ReadMem(16 bytes @ 0xE0002FE0)ROMTbl 0 [2]: FFF03000, CID: B105E00D, PID: 002BB003 FPB -- CPU_ReadMem(16 bytes @ 0xE0000FF0) -- CPU_ReadMem(16 bytes @ 0xE0000FE0)ROMTbl 0 [3]: FFF01000, CID: B105E00D, PID: 002BB001 ITM
 -- CPU_ReadMem(16 bytes @ 0xE00FF010) -- CPU_ReadMem(16 bytes @ 0xE0040FF0) -- CPU_ReadMem(16 bytes @ 0xE0040FE0)ROMTbl 0 [4]: FFF41000, CID: B105900D, PID: 002BB923 TPIU-Lite -- CPU_ReadMem(16 bytes @ 0xE0041FF0) -- CPU_ReadMem(16 bytes @ 0xE0041FE0)ROMTbl 0 [5]: FFF42000, CID: B105900D, PID: 002BB924 ETM-M3 >0x0D TIF> >0x21 TIF>  returns 0x2BA01477 (0029ms, 0574ms total)
T18B4 000:604 JLINK_GetDeviceFamily()  returns 3 (0000ms, 0574ms total)
T18B4 000:604 JLINK_ReadMem (0xE00FFFF0, 0x0010 Bytes, ...) -- CPU is running -- CPU_ReadMem(16 bytes @ 0xE00FFFF0) - Data: 0D 00 00 00 10 00 00 00 05 00 00 00 B1 00 00 00  returns 0x00 (0001ms, 0575ms total)
T18B4 000:605 JLINK_ReadMem (0xE00FFFD0, 0x0020 Bytes, ...) -- CPU is running -- CPU_ReadMem(32 bytes @ 0xE00FFFD0) - Data: 00 00 00 00 00 00 00 00 00 00 00 00 00 00 00 00 ...  returns 0x00 (0000ms, 0575ms total)
T18B4 000:605 JLINK_ReadMem (0xE00FF000, 0x0018 Bytes, ...) -- CPU is running -- CPU_ReadMem(24 bytes @ 0xE00FF000) - Data: 03 F0 F0 FF 03 20 F0 FF 03 30 F0 FF 03 10 F0 FF ...  returns 0x00 (0001ms, 0576ms total)
T18B4 000:606 JLINK_ReadMemU32(0xE000ED00, 0x0001 Items, ...) -- CPU is running -- CPU_ReadMem(4 bytes @ 0xE000ED00) - Data: 30 C2 2F 41  returns 0x01 (0000ms, 0576ms total)
T18B4 000:606 JLINK_SetResetType(JLINKARM_RESET_TYPE_NORMAL)  returns JLINKARM_RESET_TYPE_NORMAL (0000ms, 0576ms total)
T18B4 000:606 JLINK_Reset() -- CPU is running -- CPU_WriteMem(4 bytes @ 0xE000EDF0) -- CPU is running -- CPU_WriteMem(4 bytes @ 0xE000EDFC) >0x35 TIF> -- CPU is running -- CPU_WriteMem(4 bytes @ 0xE000ED0C) -- CPU is running -- CPU_ReadMem(4 bytes @ 0xE000EDF0) -- CPU is running -- CPU_ReadMem(4 bytes @ 0xE000EDF0) -- CPU is running -- CPU_WriteMem(4 bytes @ 0xE000EDF0) -- CPU is running -- CPU_WriteMem(4 bytes @ 0xE000EDFC) -- CPU is running -- CPU_ReadMem(4 bytes @ 0xE000EDF0)
 -- CPU_WriteMem(4 bytes @ 0xE0002000) -- CPU_ReadMem(4 bytes @ 0xE000EDFC) -- CPU_ReadMem(4 bytes @ 0xE0001000) (0013ms, 0589ms total)
T18B4 000:619 JLINK_ReadReg(R15 (PC))  returns 0x08000108 (0000ms, 0589ms total)
T18B4 000:619 JLINK_ReadReg(XPSR)  returns 0x01000000 (0000ms, 0589ms total)
T18B4 000:619 JLINK_Halt()  returns 0x00 (0000ms, 0589ms total)
T18B4 000:619 JLINK_IsHalted()  returns TRUE (0000ms, 0589ms total)
T18B4 000:619 JLINK_ReadMemU32(0xE000EDF0, 0x0001 Items, ...) -- CPU_ReadMem(4 bytes @ 0xE000EDF0) - Data: 03 00 03 00  returns 0x01 (0001ms, 0590ms total)
T18B4 000:620 JLINK_WriteU32(0xE000EDF0, 0xA05F0003) -- CPU_WriteMem(4 bytes @ 0xE000EDF0)  returns 0x00 (0000ms, 0590ms total)
T18B4 000:620 JLINK_WriteU32(0xE000EDFC, 0x01000000) -- CPU_WriteMem(4 bytes @ 0xE000EDFC)  returns 0x00 (0000ms, 0590ms total)
T18B4 000:620 JLINK_GetHWStatus(...)  returns 0x00 (0001ms, 0591ms total)
T18B4 000:621 JLINK_GetNumBPUnits(Type = 0xFFFFFF00)  returns 0x06 (0000ms, 0591ms total)
T18B4 000:621 JLINK_GetNumBPUnits(Type = 0xF0)  returns 0x2000 (0000ms, 0591ms total)
T18B4 000:621 JLINK_GetNumWPUnits()  returns 0x04 (0000ms, 0591ms total)
T18B4 000:621 JLINK_GetSpeed()  returns 0x2710 (0000ms, 0591ms total)
T18B4 000:621 JLINK_ReadMemU32(0xE000E004, 0x0001 Items, ...) -- CPU_ReadMem(4 bytes @ 0xE000E004) - Data: 01 00 00 00  returns 0x01 (0000ms, 0591ms total)
T18B4 000:621 JLINK_ReadMemU32(0xE000E004, 0x0001 Items, ...) -- CPU_ReadMem(4 bytes @ 0xE000E004) - Data: 01 00 00 00  returns 0x01 (0001ms, 0592ms total)
T18B4 000:622 JLINK_WriteMem(0xE0001000, 0x001C Bytes, ...) - Data: 01 00 00 00 00 00 00 00 00 00 00 00 00 00 00 00 ... -- CPU_WriteMem(28 bytes @ 0xE0001000)  returns 0x1C (0001ms, 0593ms total)
T18B4 000:623 JLINK_ReadMem (0xE0001000, 0x001C Bytes, ...) -- CPU_ReadMem(28 bytes @ 0xE0001000) - Data: 01 00 00 40 00 00 00 00 00 00 00 00 00 00 00 00 ...  returns 0x00 (0000ms, 0593ms total)
T18B4 000:623 JLINK_ReadReg(R15 (PC))  returns 0x08000108 (0000ms, 0593ms total)
T18B4 000:623 JLINK_ReadReg(XPSR)  returns 0x01000000 (0000ms, 0593ms total)
T18B4 000:655 JLINK_ReadMem (0x08000000, 0x1000 Bytes, ...) -- CPU_ReadMem(4096 bytes @ 0x08000000) -- Updating C cache (4096 bytes @ 0x08000000) -- Read from C cache (4096 bytes @ 0x08000000) - Data: 38 0A 00 20 09 01 00 08 4D 34 00 08 75 2C 00 08 ...  returns 0x00 (0010ms, 0603ms total)
T18B4 000:666 JLINK_ReadMem (0x08001000, 0x1000 Bytes, ...) -- CPU_ReadMem(4096 bytes @ 0x08001000) -- Updating C cache (4096 bytes @ 0x08001000) -- Read from C cache (4096 bytes @ 0x08001000) - Data: B5 FB F0 F0 C0 F3 0B 00 04 28 01 D2 04 20 2D E0 ...  returns 0x00 (0009ms, 0612ms total)
T18B4 000:676 JLINK_ReadMem (0x08002000, 0x1000 Bytes, ...) -- CPU_ReadMem(4096 bytes @ 0x08002000) -- Updating C cache (4096 bytes @ 0x08002000) -- Read from C cache (4096 bytes @ 0x08002000) - Data: 20 10 FE F7 B1 FF 05 46 06 E0 FE F7 AD FF 40 1B ...  returns 0x00 (0010ms, 0622ms total)
T18B4 000:687 JLINK_ReadMem (0x08003000, 0x1000 Bytes, ...) -- CPU_ReadMem(4096 bytes @ 0x08003000) -- Updating C cache (4096 bytes @ 0x08003000) -- Read from C cache (4096 bytes @ 0x08003000) - Data: 00 20 B8 42 CC D0 00 20 E0 E7 2D E9 F0 41 04 46 ...  returns 0x00 (0009ms, 0631ms total)
T18B4 000:697 JLINK_ReadMem (0x08004000, 0x0B7C Bytes, ...) -- CPU_ReadMem(2944 bytes @ 0x08004000) -- Updating C cache (2944 bytes @ 0x08004000) -- Read from C cache (2940 bytes @ 0x08004000) - Data: 00 F0 E0 F8 0A E0 01 22 D1 03 06 48 FC F7 A6 FF ...  returns 0x00 (0007ms, 0638ms total)
T18B4 000:760 JLINK_SetResetType(JLINKARM_RESET_TYPE_NORMAL)  returns JLINKARM_RESET_TYPE_NORMAL (0000ms, 0638ms total)
T18B4 000:760 JLINK_Reset() -- CPU_WriteMem(4 bytes @ 0xE000EDF0) -- CPU_WriteMem(4 bytes @ 0xE000EDFC) >0x35 TIF> -- CPU_WriteMem(4 bytes @ 0xE000ED0C) -- CPU_ReadMem(4 bytes @ 0xE000EDF0) -- CPU_ReadMem(4 bytes @ 0xE000EDF0) -- CPU_WriteMem(4 bytes @ 0xE000EDF0) -- CPU_WriteMem(4 bytes @ 0xE000EDFC) -- CPU is running -- CPU_ReadMem(4 bytes @ 0xE000EDF0) -- CPU_WriteMem(4 bytes @ 0xE0002000) -- CPU_ReadMem(4 bytes @ 0xE000EDFC) -- CPU_ReadMem(4 bytes @ 0xE0001000) (0014ms, 0652ms total)
T18B4 000:774 JLINK_ReadReg(R15 (PC))  returns 0x08000108 (0000ms, 0652ms total)
T18B4 000:774 JLINK_ReadReg(XPSR)  returns 0x01000000 (0000ms, 0652ms total)
T18B4 000:775 JLINK_ReadMem (0x08000108, 0x003C Bytes, ...) -- CPU_ReadMem(128 bytes @ 0x08000100) -- Updating C cache (128 bytes @ 0x08000100) -- Read from C cache (60 bytes @ 0x08000108) - Data: 06 48 80 47 06 48 00 47 FE E7 FE E7 FE E7 FE E7 ...  returns 0x00 (0001ms, 0653ms total)
T18B4 000:885 JLINK_ReadMem (0x40020000, 0x0024 Bytes, ...) -- CPU_ReadMem(36 bytes @ 0x40020000) - Data: 00 00 00 A8 00 00 00 A8 00 00 00 A8 00 00 00 A8 ...  returns 0x00 (0000ms, 0653ms total)
T18B4 000:885 JLINK_ReadMem (0x40020024, 0x0004 Bytes, ...) -- CPU_ReadMem(4 bytes @ 0x40020024) - Data: 00 00 00 A8  returns 0x00 (0000ms, 0653ms total)
T18B4 000:885 JLINK_ReadMem (0x40020000, 0x0004 Bytes, ...) -- CPU_ReadMem(4 bytes @ 0x40020000) - Data: 00 00 00 A8  returns 0x00 (0000ms, 0653ms total)
T18B4 000:885 JLINK_ReadMem (0x40020000, 0x0004 Bytes, ...) -- CPU_ReadMem(4 bytes @ 0x40020000) - Data: 00 00 00 A8  returns 0x00 (0001ms, 0654ms total)
T18B4 000:886 JLINK_ReadMem (0x40020000, 0x0004 Bytes, ...) -- CPU_ReadMem(4 bytes @ 0x40020000) - Data: 00 00 00 A8  returns 0x00 (0000ms, 0654ms total)
T18B4 000:886 JLINK_ReadMem (0x40020000, 0x0004 Bytes, ...) -- CPU_ReadMem(4 bytes @ 0x40020000) - Data: 00 00 00 A8  returns 0x00 (0000ms, 0654ms total)
T18B4 000:886 JLINK_ReadMem (0x40020000, 0x0004 Bytes, ...) -- CPU_ReadMem(4 bytes @ 0x40020000) - Data: 00 00 00 A8  returns 0x00 (0000ms, 0654ms total)
T18B4 000:886 JLINK_ReadMem (0x40020000, 0x0004 Bytes, ...) -- CPU_ReadMem(4 bytes @ 0x40020000) - Data: 00 00 00 A8  returns 0x00 (0001ms, 0655ms total)
T18B4 000:887 JLINK_ReadMem (0x40020000, 0x0004 Bytes, ...) -- CPU_ReadMem(4 bytes @ 0x40020000) - Data: 00 00 00 A8  returns 0x00 (0000ms, 0655ms total)
T18B4 000:887 JLINK_ReadMem (0x40020000, 0x0004 Bytes, ...) -- CPU_ReadMem(4 bytes @ 0x40020000) - Data: 00 00 00 A8  returns 0x00 (0000ms, 0655ms total)
T18B4 000:887 JLINK_ReadMem (0x40020000, 0x0004 Bytes, ...) -- CPU_ReadMem(4 bytes @ 0x40020000) - Data: 00 00 00 A8  returns 0x00 (0000ms, 0655ms total)
T18B4 000:887 JLINK_ReadMem (0x40020000, 0x0004 Bytes, ...) -- CPU_ReadMem(4 bytes @ 0x40020000) - Data: 00 00 00 A8  returns 0x00 (0001ms, 0656ms total)
T18B4 000:888 JLINK_ReadMem (0x40020000, 0x0004 Bytes, ...) -- CPU_ReadMem(4 bytes @ 0x40020000) - Data: 00 00 00 A8  returns 0x00 (0000ms, 0656ms total)
T18B4 000:888 JLINK_ReadMem (0x40020000, 0x0004 Bytes, ...) -- CPU_ReadMem(4 bytes @ 0x40020000) - Data: 00 00 00 A8  returns 0x00 (0000ms, 0656ms total)
T18B4 000:888 JLINK_ReadMem (0x40020000, 0x0004 Bytes, ...) -- CPU_ReadMem(4 bytes @ 0x40020000) - Data: 00 00 00 A8  returns 0x00 (0000ms, 0656ms total)
T18B4 000:888 JLINK_ReadMem (0x40020000, 0x0004 Bytes, ...) -- CPU_ReadMem(4 bytes @ 0x40020000) - Data: 00 00 00 A8  returns 0x00 (0001ms, 0657ms total)
T18B4 000:889 JLINK_ReadMem (0x40020000, 0x0004 Bytes, ...) -- CPU_ReadMem(4 bytes @ 0x40020000) - Data: 00 00 00 A8  returns 0x00 (0000ms, 0657ms total)
T18B4 000:889 JLINK_ReadMem (0x40020000, 0x0004 Bytes, ...) -- CPU_ReadMem(4 bytes @ 0x40020000) - Data: 00 00 00 A8  returns 0x00 (0000ms, 0657ms total)
T18B4 000:889 JLINK_ReadMem (0x40020000, 0x0004 Bytes, ...) -- CPU_ReadMem(4 bytes @ 0x40020000) - Data: 00 00 00 A8  returns 0x00 (0000ms, 0657ms total)
T18B4 000:889 JLINK_ReadMem (0x40020004, 0x0004 Bytes, ...) -- CPU_ReadMem(4 bytes @ 0x40020004) - Data: 00 00 00 A8  returns 0x00 (0001ms, 0658ms total)
T18B4 000:890 JLINK_ReadMem (0x40020004, 0x0004 Bytes, ...) -- CPU_ReadMem(4 bytes @ 0x40020004) - Data: 00 00 00 A8  returns 0x00 (0000ms, 0658ms total)
T18B4 000:890 JLINK_ReadMem (0x40020004, 0x0004 Bytes, ...) -- CPU_ReadMem(4 bytes @ 0x40020004) - Data: 00 00 00 A8  returns 0x00 (0000ms, 0658ms total)
T18B4 000:890 JLINK_ReadMem (0x40020004, 0x0004 Bytes, ...) -- CPU_ReadMem(4 bytes @ 0x40020004) - Data: 00 00 00 A8  returns 0x00 (0000ms, 0658ms total)
T18B4 000:890 JLINK_ReadMem (0x40020004, 0x0004 Bytes, ...) -- CPU_ReadMem(4 bytes @ 0x40020004) - Data: 00 00 00 A8  returns 0x00 (0001ms, 0659ms total)
T18B4 000:891 JLINK_ReadMem (0x40020004, 0x0004 Bytes, ...) -- CPU_ReadMem(4 bytes @ 0x40020004) - Data: 00 00 00 A8  returns 0x00 (0000ms, 0659ms total)
T18B4 000:891 JLINK_ReadMem (0x40020004, 0x0004 Bytes, ...) -- CPU_ReadMem(4 bytes @ 0x40020004) - Data: 00 00 00 A8  returns 0x00 (0000ms, 0659ms total)
T18B4 000:891 JLINK_ReadMem (0x40020004, 0x0004 Bytes, ...) -- CPU_ReadMem(4 bytes @ 0x40020004) - Data: 00 00 00 A8  returns 0x00 (0000ms, 0659ms total)
T18B4 000:891 JLINK_ReadMem (0x40020004, 0x0004 Bytes, ...) -- CPU_ReadMem(4 bytes @ 0x40020004) - Data: 00 00 00 A8  returns 0x00 (0001ms, 0660ms total)
T18B4 000:892 JLINK_ReadMem (0x40020004, 0x0004 Bytes, ...) -- CPU_ReadMem(4 bytes @ 0x40020004) - Data: 00 00 00 A8  returns 0x00 (0000ms, 0660ms total)
T18B4 000:892 JLINK_ReadMem (0x40020004, 0x0004 Bytes, ...) -- CPU_ReadMem(4 bytes @ 0x40020004) - Data: 00 00 00 A8  returns 0x00 (0000ms, 0660ms total)
T18B4 000:892 JLINK_ReadMem (0x40020004, 0x0004 Bytes, ...) -- CPU_ReadMem(4 bytes @ 0x40020004) - Data: 00 00 00 A8  returns 0x00 (0001ms, 0661ms total)
T18B4 000:893 JLINK_ReadMem (0x40020004, 0x0004 Bytes, ...) -- CPU_ReadMem(4 bytes @ 0x40020004) - Data: 00 00 00 A8  returns 0x00 (0000ms, 0661ms total)
T18B4 000:893 JLINK_ReadMem (0x40020004, 0x0004 Bytes, ...) -- CPU_ReadMem(4 bytes @ 0x40020004) - Data: 00 00 00 A8  returns 0x00 (0001ms, 0662ms total)
T18B4 000:894 JLINK_ReadMem (0x40020004, 0x0004 Bytes, ...) -- CPU_ReadMem(4 bytes @ 0x40020004) - Data: 00 00 00 A8  returns 0x00 (0000ms, 0662ms total)
T18B4 000:894 JLINK_ReadMem (0x40020004, 0x0004 Bytes, ...) -- CPU_ReadMem(4 bytes @ 0x40020004) - Data: 00 00 00 A8  returns 0x00 (0001ms, 0663ms total)
T18B4 000:895 JLINK_ReadMem (0x40020004, 0x0004 Bytes, ...) -- CPU_ReadMem(4 bytes @ 0x40020004) - Data: 00 00 00 A8  returns 0x00 (0000ms, 0663ms total)
T18B4 000:895 JLINK_ReadMem (0x40020008, 0x0004 Bytes, ...) -- CPU_ReadMem(4 bytes @ 0x40020008) - Data: 00 00 00 A8  returns 0x00 (0000ms, 0663ms total)
T18B4 000:896 JLINK_ReadMem (0x40020008, 0x0004 Bytes, ...) -- CPU_ReadMem(4 bytes @ 0x40020008) - Data: 00 00 00 A8  returns 0x00 (0000ms, 0664ms total)
T18B4 000:896 JLINK_ReadMem (0x40020008, 0x0004 Bytes, ...) -- CPU_ReadMem(4 bytes @ 0x40020008) - Data: 00 00 00 A8  returns 0x00 (0000ms, 0664ms total)
T18B4 000:897 JLINK_ReadMem (0x40020008, 0x0004 Bytes, ...) -- CPU_ReadMem(4 bytes @ 0x40020008) - Data: 00 00 00 A8  returns 0x00 (0000ms, 0664ms total)
T18B4 000:897 JLINK_ReadMem (0x40020008, 0x0004 Bytes, ...) -- CPU_ReadMem(4 bytes @ 0x40020008) - Data: 00 00 00 A8  returns 0x00 (0000ms, 0664ms total)
T18B4 000:897 JLINK_ReadMem (0x40020008, 0x0004 Bytes, ...) -- CPU_ReadMem(4 bytes @ 0x40020008) - Data: 00 00 00 A8  returns 0x00 (0001ms, 0665ms total)
T18B4 000:898 JLINK_ReadMem (0x40020008, 0x0004 Bytes, ...) -- CPU_ReadMem(4 bytes @ 0x40020008) - Data: 00 00 00 A8  returns 0x00 (0000ms, 0665ms total)
T18B4 000:898 JLINK_ReadMem (0x40020008, 0x0004 Bytes, ...) -- CPU_ReadMem(4 bytes @ 0x40020008) - Data: 00 00 00 A8  returns 0x00 (0001ms, 0666ms total)
T18B4 000:899 JLINK_ReadMem (0x40020008, 0x0004 Bytes, ...) -- CPU_ReadMem(4 bytes @ 0x40020008) - Data: 00 00 00 A8  returns 0x00 (0000ms, 0666ms total)
T18B4 000:899 JLINK_ReadMem (0x40020008, 0x0004 Bytes, ...) -- CPU_ReadMem(4 bytes @ 0x40020008) - Data: 00 00 00 A8  returns 0x00 (0001ms, 0667ms total)
T18B4 000:900 JLINK_ReadMem (0x40020008, 0x0004 Bytes, ...) -- CPU_ReadMem(4 bytes @ 0x40020008) - Data: 00 00 00 A8  returns 0x00 (0000ms, 0667ms total)
T18B4 000:900 JLINK_ReadMem (0x40020008, 0x0004 Bytes, ...) -- CPU_ReadMem(4 bytes @ 0x40020008) - Data: 00 00 00 A8  returns 0x00 (0001ms, 0668ms total)
T18B4 000:901 JLINK_ReadMem (0x40020008, 0x0004 Bytes, ...) -- CPU_ReadMem(4 bytes @ 0x40020008) - Data: 00 00 00 A8  returns 0x00 (0000ms, 0668ms total)
T18B4 000:901 JLINK_ReadMem (0x40020008, 0x0004 Bytes, ...) -- CPU_ReadMem(4 bytes @ 0x40020008) - Data: 00 00 00 A8  returns 0x00 (0000ms, 0668ms total)
T18B4 000:901 JLINK_ReadMem (0x40020008, 0x0004 Bytes, ...) -- CPU_ReadMem(4 bytes @ 0x40020008) - Data: 00 00 00 A8  returns 0x00 (0000ms, 0668ms total)
T18B4 000:901 JLINK_ReadMem (0x40020008, 0x0004 Bytes, ...) -- CPU_ReadMem(4 bytes @ 0x40020008) - Data: 00 00 00 A8  returns 0x00 (0001ms, 0669ms total)
T18B4 000:902 JLINK_ReadMem (0x40020008, 0x0004 Bytes, ...) -- CPU_ReadMem(4 bytes @ 0x40020008) - Data: 00 00 00 A8  returns 0x00 (0000ms, 0669ms total)
T18B4 000:902 JLINK_ReadMem (0x4002000C, 0x0004 Bytes, ...) -- CPU_ReadMem(4 bytes @ 0x4002000C) - Data: 00 00 00 A8  returns 0x00 (0000ms, 0669ms total)
T18B4 000:902 JLINK_ReadMem (0x4002000C, 0x0004 Bytes, ...) -- CPU_ReadMem(4 bytes @ 0x4002000C) - Data: 00 00 00 A8  returns 0x00 (0000ms, 0669ms total)
T18B4 000:902 JLINK_ReadMem (0x4002000C, 0x0004 Bytes, ...) -- CPU_ReadMem(4 bytes @ 0x4002000C) - Data: 00 00 00 A8  returns 0x00 (0001ms, 0670ms total)
T18B4 000:903 JLINK_ReadMem (0x4002000C, 0x0004 Bytes, ...) -- CPU_ReadMem(4 bytes @ 0x4002000C) - Data: 00 00 00 A8  returns 0x00 (0000ms, 0670ms total)
T18B4 000:903 JLINK_ReadMem (0x4002000C, 0x0004 Bytes, ...) -- CPU_ReadMem(4 bytes @ 0x4002000C) - Data: 00 00 00 A8  returns 0x00 (0000ms, 0670ms total)
T18B4 000:903 JLINK_ReadMem (0x4002000C, 0x0004 Bytes, ...) -- CPU_ReadMem(4 bytes @ 0x4002000C) - Data: 00 00 00 A8  returns 0x00 (0000ms, 0670ms total)
T18B4 000:903 JLINK_ReadMem (0x4002000C, 0x0004 Bytes, ...) -- CPU_ReadMem(4 bytes @ 0x4002000C) - Data: 00 00 00 A8  returns 0x00 (0001ms, 0671ms total)
T18B4 000:904 JLINK_ReadMem (0x4002000C, 0x0004 Bytes, ...) -- CPU_ReadMem(4 bytes @ 0x4002000C) - Data: 00 00 00 A8  returns 0x00 (0000ms, 0671ms total)
T18B4 000:904 JLINK_ReadMem (0x4002000C, 0x0004 Bytes, ...) -- CPU_ReadMem(4 bytes @ 0x4002000C) - Data: 00 00 00 A8  returns 0x00 (0000ms, 0671ms total)
T18B4 000:904 JLINK_ReadMem (0x4002000C, 0x0004 Bytes, ...) -- CPU_ReadMem(4 bytes @ 0x4002000C) - Data: 00 00 00 A8  returns 0x00 (0000ms, 0671ms total)
T18B4 000:904 JLINK_ReadMem (0x4002000C, 0x0004 Bytes, ...) -- CPU_ReadMem(4 bytes @ 0x4002000C) - Data: 00 00 00 A8  returns 0x00 (0001ms, 0672ms total)
T18B4 000:905 JLINK_ReadMem (0x4002000C, 0x0004 Bytes, ...) -- CPU_ReadMem(4 bytes @ 0x4002000C) - Data: 00 00 00 A8  returns 0x00 (0000ms, 0672ms total)
T18B4 000:905 JLINK_ReadMem (0x4002000C, 0x0004 Bytes, ...) -- CPU_ReadMem(4 bytes @ 0x4002000C) - Data: 00 00 00 A8  returns 0x00 (0000ms, 0672ms total)
T18B4 000:905 JLINK_ReadMem (0x4002000C, 0x0004 Bytes, ...) -- CPU_ReadMem(4 bytes @ 0x4002000C) - Data: 00 00 00 A8  returns 0x00 (0000ms, 0672ms total)
T18B4 000:905 JLINK_ReadMem (0x4002000C, 0x0004 Bytes, ...) -- CPU_ReadMem(4 bytes @ 0x4002000C) - Data: 00 00 00 A8  returns 0x00 (0001ms, 0673ms total)
T18B4 000:906 JLINK_ReadMem (0x4002000C, 0x0004 Bytes, ...) -- CPU_ReadMem(4 bytes @ 0x4002000C) - Data: 00 00 00 A8  returns 0x00 (0000ms, 0673ms total)
T18B4 000:906 JLINK_ReadMem (0x4002000C, 0x0004 Bytes, ...) -- CPU_ReadMem(4 bytes @ 0x4002000C) - Data: 00 00 00 A8  returns 0x00 (0000ms, 0673ms total)
T18B4 000:906 JLINK_ReadMem (0x40020010, 0x0004 Bytes, ...) -- CPU_ReadMem(4 bytes @ 0x40020010) - Data: 00 00 00 A8  returns 0x00 (0000ms, 0673ms total)
T18B4 000:906 JLINK_ReadMem (0x40020010, 0x0004 Bytes, ...) -- CPU_ReadMem(4 bytes @ 0x40020010) - Data: 00 00 00 A8  returns 0x00 (0001ms, 0674ms total)
T18B4 000:907 JLINK_ReadMem (0x40020010, 0x0004 Bytes, ...) -- CPU_ReadMem(4 bytes @ 0x40020010) - Data: 00 00 00 A8  returns 0x00 (0000ms, 0674ms total)
T18B4 000:907 JLINK_ReadMem (0x40020010, 0x0004 Bytes, ...) -- CPU_ReadMem(4 bytes @ 0x40020010) - Data: 00 00 00 A8  returns 0x00 (0000ms, 0674ms total)
T18B4 000:907 JLINK_ReadMem (0x40020010, 0x0004 Bytes, ...) -- CPU_ReadMem(4 bytes @ 0x40020010) - Data: 00 00 00 A8  returns 0x00 (0000ms, 0674ms total)
T18B4 000:907 JLINK_ReadMem (0x40020010, 0x0004 Bytes, ...) -- CPU_ReadMem(4 bytes @ 0x40020010) - Data: 00 00 00 A8  returns 0x00 (0001ms, 0675ms total)
T18B4 000:908 JLINK_ReadMem (0x40020010, 0x0004 Bytes, ...) -- CPU_ReadMem(4 bytes @ 0x40020010) - Data: 00 00 00 A8  returns 0x00 (0000ms, 0675ms total)
T18B4 000:908 JLINK_ReadMem (0x40020010, 0x0004 Bytes, ...) -- CPU_ReadMem(4 bytes @ 0x40020010) - Data: 00 00 00 A8  returns 0x00 (0000ms, 0675ms total)
T18B4 000:908 JLINK_ReadMem (0x40020010, 0x0004 Bytes, ...) -- CPU_ReadMem(4 bytes @ 0x40020010) - Data: 00 00 00 A8  returns 0x00 (0000ms, 0675ms total)
T18B4 000:908 JLINK_ReadMem (0x40020010, 0x0004 Bytes, ...) -- CPU_ReadMem(4 bytes @ 0x40020010) - Data: 00 00 00 A8  returns 0x00 (0001ms, 0676ms total)
T18B4 000:909 JLINK_ReadMem (0x40020010, 0x0004 Bytes, ...) -- CPU_ReadMem(4 bytes @ 0x40020010) - Data: 00 00 00 A8  returns 0x00 (0000ms, 0676ms total)
T18B4 000:909 JLINK_ReadMem (0x40020010, 0x0004 Bytes, ...) -- CPU_ReadMem(4 bytes @ 0x40020010) - Data: 00 00 00 A8  returns 0x00 (0000ms, 0676ms total)
T18B4 000:909 JLINK_ReadMem (0x40020010, 0x0004 Bytes, ...) -- CPU_ReadMem(4 bytes @ 0x40020010) - Data: 00 00 00 A8  returns 0x00 (0000ms, 0676ms total)
T18B4 000:909 JLINK_ReadMem (0x40020010, 0x0004 Bytes, ...) -- CPU_ReadMem(4 bytes @ 0x40020010) - Data: 00 00 00 A8  returns 0x00 (0001ms, 0677ms total)
T18B4 000:910 JLINK_ReadMem (0x40020010, 0x0004 Bytes, ...) -- CPU_ReadMem(4 bytes @ 0x40020010) - Data: 00 00 00 A8  returns 0x00 (0000ms, 0677ms total)
T18B4 000:910 JLINK_ReadMem (0x40020010, 0x0004 Bytes, ...) -- CPU_ReadMem(4 bytes @ 0x40020010) - Data: 00 00 00 A8  returns 0x00 (0000ms, 0677ms total)
T18B4 000:910 JLINK_ReadMem (0x40020010, 0x0004 Bytes, ...) -- CPU_ReadMem(4 bytes @ 0x40020010) - Data: 00 00 00 A8  returns 0x00 (0000ms, 0677ms total)
T18B4 000:910 JLINK_ReadMem (0x40020014, 0x0004 Bytes, ...) -- CPU_ReadMem(4 bytes @ 0x40020014) - Data: 00 00 00 A8  returns 0x00 (0001ms, 0678ms total)
T18B4 000:911 JLINK_ReadMem (0x40020014, 0x0004 Bytes, ...) -- CPU_ReadMem(4 bytes @ 0x40020014) - Data: 00 00 00 A8  returns 0x00 (0000ms, 0678ms total)
T18B4 000:911 JLINK_ReadMem (0x40020014, 0x0004 Bytes, ...) -- CPU_ReadMem(4 bytes @ 0x40020014) - Data: 00 00 00 A8  returns 0x00 (0000ms, 0678ms total)
T18B4 000:911 JLINK_ReadMem (0x40020014, 0x0004 Bytes, ...) -- CPU_ReadMem(4 bytes @ 0x40020014) - Data: 00 00 00 A8  returns 0x00 (0000ms, 0678ms total)
T18B4 000:911 JLINK_ReadMem (0x40020014, 0x0004 Bytes, ...) -- CPU_ReadMem(4 bytes @ 0x40020014) - Data: 00 00 00 A8  returns 0x00 (0001ms, 0679ms total)
T18B4 000:912 JLINK_ReadMem (0x40020014, 0x0004 Bytes, ...) -- CPU_ReadMem(4 bytes @ 0x40020014) - Data: 00 00 00 A8  returns 0x00 (0000ms, 0679ms total)
T18B4 000:912 JLINK_ReadMem (0x40020014, 0x0004 Bytes, ...) -- CPU_ReadMem(4 bytes @ 0x40020014) - Data: 00 00 00 A8  returns 0x00 (0000ms, 0679ms total)
T18B4 000:912 JLINK_ReadMem (0x40020014, 0x0004 Bytes, ...) -- CPU_ReadMem(4 bytes @ 0x40020014) - Data: 00 00 00 A8  returns 0x00 (0000ms, 0679ms total)
T18B4 000:912 JLINK_ReadMem (0x40020014, 0x0004 Bytes, ...) -- CPU_ReadMem(4 bytes @ 0x40020014) - Data: 00 00 00 A8  returns 0x00 (0001ms, 0680ms total)
T18B4 000:913 JLINK_ReadMem (0x40020014, 0x0004 Bytes, ...) -- CPU_ReadMem(4 bytes @ 0x40020014) - Data: 00 00 00 A8  returns 0x00 (0000ms, 0680ms total)
T18B4 000:913 JLINK_ReadMem (0x40020014, 0x0004 Bytes, ...) -- CPU_ReadMem(4 bytes @ 0x40020014) - Data: 00 00 00 A8  returns 0x00 (0000ms, 0680ms total)
T18B4 000:913 JLINK_ReadMem (0x40020014, 0x0004 Bytes, ...) -- CPU_ReadMem(4 bytes @ 0x40020014) - Data: 00 00 00 A8  returns 0x00 (0000ms, 0680ms total)
T18B4 000:913 JLINK_ReadMem (0x40020014, 0x0004 Bytes, ...) -- CPU_ReadMem(4 bytes @ 0x40020014) - Data: 00 00 00 A8  returns 0x00 (0001ms, 0681ms total)
T18B4 000:914 JLINK_ReadMem (0x40020014, 0x0004 Bytes, ...) -- CPU_ReadMem(4 bytes @ 0x40020014) - Data: 00 00 00 A8  returns 0x00 (0000ms, 0681ms total)
T18B4 000:914 JLINK_ReadMem (0x40020014, 0x0004 Bytes, ...) -- CPU_ReadMem(4 bytes @ 0x40020014) - Data: 00 00 00 A8  returns 0x00 (0000ms, 0681ms total)
T18B4 000:914 JLINK_ReadMem (0x40020014, 0x0004 Bytes, ...) -- CPU_ReadMem(4 bytes @ 0x40020014) - Data: 00 00 00 A8  returns 0x00 (0000ms, 0681ms total)
T18B4 000:914 JLINK_ReadMem (0x40020014, 0x0004 Bytes, ...) -- CPU_ReadMem(4 bytes @ 0x40020014) - Data: 00 00 00 A8  returns 0x00 (0001ms, 0682ms total)
T18B4 000:915 JLINK_ReadMem (0x4002001C, 0x0004 Bytes, ...) -- CPU_ReadMem(4 bytes @ 0x4002001C) - Data: 00 00 00 A8  returns 0x00 (0000ms, 0682ms total)
T18B4 000:915 JLINK_ReadMem (0x4002001C, 0x0004 Bytes, ...) -- CPU_ReadMem(4 bytes @ 0x4002001C) - Data: 00 00 00 A8  returns 0x00 (0000ms, 0682ms total)
T18B4 000:915 JLINK_ReadMem (0x4002001C, 0x0004 Bytes, ...) -- CPU_ReadMem(4 bytes @ 0x4002001C) - Data: 00 00 00 A8  returns 0x00 (0000ms, 0682ms total)
T18B4 000:916 JLINK_ReadMem (0x4002001C, 0x0004 Bytes, ...) -- CPU_ReadMem(4 bytes @ 0x4002001C) - Data: 00 00 00 A8  returns 0x00 (0000ms, 0682ms total)
T18B4 000:916 JLINK_ReadMem (0x4002001C, 0x0004 Bytes, ...) -- CPU_ReadMem(4 bytes @ 0x4002001C) - Data: 00 00 00 A8  returns 0x00 (0000ms, 0682ms total)
T18B4 000:916 JLINK_ReadMem (0x4002001C, 0x0004 Bytes, ...) -- CPU_ReadMem(4 bytes @ 0x4002001C) - Data: 00 00 00 A8  returns 0x00 (0000ms, 0682ms total)
T18B4 000:916 JLINK_ReadMem (0x4002001C, 0x0004 Bytes, ...) -- CPU_ReadMem(4 bytes @ 0x4002001C) - Data: 00 00 00 A8  returns 0x00 (0000ms, 0682ms total)
T18B4 000:917 JLINK_ReadMem (0x4002001C, 0x0004 Bytes, ...) -- CPU_ReadMem(4 bytes @ 0x4002001C) - Data: 00 00 00 A8  returns 0x00 (0000ms, 0683ms total)
T18B4 000:917 JLINK_ReadMem (0x4002001C, 0x0004 Bytes, ...) -- CPU_ReadMem(4 bytes @ 0x4002001C) - Data: 00 00 00 A8  returns 0x00 (0000ms, 0683ms total)
T18B4 000:917 JLINK_ReadMem (0x4002001C, 0x0004 Bytes, ...) -- CPU_ReadMem(4 bytes @ 0x4002001C) - Data: 00 00 00 A8  returns 0x00 (0000ms, 0683ms total)
T18B4 000:917 JLINK_ReadMem (0x4002001C, 0x0004 Bytes, ...) -- CPU_ReadMem(4 bytes @ 0x4002001C) - Data: 00 00 00 A8  returns 0x00 (0000ms, 0683ms total)
T18B4 000:918 JLINK_ReadMem (0x4002001C, 0x0004 Bytes, ...) -- CPU_ReadMem(4 bytes @ 0x4002001C) - Data: 00 00 00 A8  returns 0x00 (0000ms, 0683ms total)
T18B4 000:918 JLINK_ReadMem (0x4002001C, 0x0004 Bytes, ...) -- CPU_ReadMem(4 bytes @ 0x4002001C) - Data: 00 00 00 A8  returns 0x00 (0000ms, 0683ms total)
T18B4 000:918 JLINK_ReadMem (0x4002001C, 0x0004 Bytes, ...) -- CPU_ReadMem(4 bytes @ 0x4002001C) - Data: 00 00 00 A8  returns 0x00 (0000ms, 0683ms total)
T18B4 000:918 JLINK_ReadMem (0x4002001C, 0x0004 Bytes, ...) -- CPU_ReadMem(4 bytes @ 0x4002001C) - Data: 00 00 00 A8  returns 0x00 (0000ms, 0683ms total)
T18B4 000:919 JLINK_ReadMem (0x4002001C, 0x0004 Bytes, ...) -- CPU_ReadMem(4 bytes @ 0x4002001C) - Data: 00 00 00 A8  returns 0x00 (0000ms, 0683ms total)
T18B4 000:919 JLINK_ReadMem (0x4002001C, 0x0004 Bytes, ...) -- CPU_ReadMem(4 bytes @ 0x4002001C) - Data: 00 00 00 A8  returns 0x00 (0000ms, 0683ms total)
T18B4 000:919 JLINK_ReadMem (0x4002001C, 0x0004 Bytes, ...) -- CPU_ReadMem(4 bytes @ 0x4002001C) - Data: 00 00 00 A8  returns 0x00 (0000ms, 0683ms total)
T18B4 000:919 JLINK_ReadMem (0x40020020, 0x0004 Bytes, ...) -- CPU_ReadMem(4 bytes @ 0x40020020) - Data: 00 00 00 A8  returns 0x00 (0000ms, 0683ms total)
T18B4 000:920 JLINK_ReadMem (0x40020020, 0x0004 Bytes, ...) -- CPU_ReadMem(4 bytes @ 0x40020020) - Data: 00 00 00 A8  returns 0x00 (0000ms, 0683ms total)
T18B4 000:920 JLINK_ReadMem (0x40020020, 0x0004 Bytes, ...) -- CPU_ReadMem(4 bytes @ 0x40020020) - Data: 00 00 00 A8  returns 0x00 (0000ms, 0683ms total)
T18B4 000:920 JLINK_ReadMem (0x40020020, 0x0004 Bytes, ...) -- CPU_ReadMem(4 bytes @ 0x40020020) - Data: 00 00 00 A8  returns 0x00 (0000ms, 0683ms total)
T18B4 000:920 JLINK_ReadMem (0x40020020, 0x0004 Bytes, ...) -- CPU_ReadMem(4 bytes @ 0x40020020) - Data: 00 00 00 A8  returns 0x00 (0000ms, 0683ms total)
T18B4 000:921 JLINK_ReadMem (0x40020020, 0x0004 Bytes, ...) -- CPU_ReadMem(4 bytes @ 0x40020020) - Data: 00 00 00 A8  returns 0x00 (0000ms, 0683ms total)
T18B4 000:921 JLINK_ReadMem (0x40020020, 0x0004 Bytes, ...) -- CPU_ReadMem(4 bytes @ 0x40020020) - Data: 00 00 00 A8  returns 0x00 (0000ms, 0683ms total)
T18B4 000:921 JLINK_ReadMem (0x40020020, 0x0004 Bytes, ...) -- CPU_ReadMem(4 bytes @ 0x40020020) - Data: 00 00 00 A8  returns 0x00 (0000ms, 0683ms total)
T18B4 000:921 JLINK_ReadMem (0x40020020, 0x0004 Bytes, ...) -- CPU_ReadMem(4 bytes @ 0x40020020) - Data: 00 00 00 A8  returns 0x00 (0000ms, 0683ms total)
T18B4 000:922 JLINK_ReadMem (0x40020024, 0x0004 Bytes, ...) -- CPU_ReadMem(4 bytes @ 0x40020024) - Data: 00 00 00 A8  returns 0x00 (0000ms, 0683ms total)
T18B4 000:922 JLINK_ReadMem (0x40020024, 0x0004 Bytes, ...) -- CPU_ReadMem(4 bytes @ 0x40020024) - Data: 00 00 00 A8  returns 0x00 (0000ms, 0683ms total)
T18B4 000:922 JLINK_ReadMem (0x40020024, 0x0004 Bytes, ...) -- CPU_ReadMem(4 bytes @ 0x40020024) - Data: 00 00 00 A8  returns 0x00 (0000ms, 0683ms total)
T18B4 000:922 JLINK_ReadMem (0x40020024, 0x0004 Bytes, ...) -- CPU_ReadMem(4 bytes @ 0x40020024) - Data: 00 00 00 A8  returns 0x00 (0000ms, 0683ms total)
T18B4 000:923 JLINK_ReadMem (0x40020024, 0x0004 Bytes, ...) -- CPU_ReadMem(4 bytes @ 0x40020024) - Data: 00 00 00 A8  returns 0x00 (0000ms, 0683ms total)
T18B4 000:923 JLINK_ReadMem (0x40020024, 0x0004 Bytes, ...) -- CPU_ReadMem(4 bytes @ 0x40020024) - Data: 00 00 00 A8  returns 0x00 (0000ms, 0683ms total)
T18B4 000:923 JLINK_ReadMem (0x40020024, 0x0004 Bytes, ...) -- CPU_ReadMem(4 bytes @ 0x40020024) - Data: 00 00 00 A8  returns 0x00 (0000ms, 0683ms total)
T18B4 000:923 JLINK_ReadMem (0x40020024, 0x0004 Bytes, ...) -- CPU_ReadMem(4 bytes @ 0x40020024) - Data: 00 00 00 A8  returns 0x00 (0000ms, 0683ms total)
T18B4 000:924 JLINK_ReadMem (0x40020024, 0x0004 Bytes, ...) -- CPU_ReadMem(4 bytes @ 0x40020024) - Data: 00 00 00 A8  returns 0x00 (0000ms, 0684ms total)
T18B4 000:940 JLINK_ReadMem (0x40020400, 0x0024 Bytes, ...) -- CPU_ReadMem(36 bytes @ 0x40020400) - Data: 80 02 00 00 80 02 00 00 80 02 00 00 80 02 00 00 ...  returns 0x00 (0000ms, 0684ms total)
T18B4 000:940 JLINK_ReadMem (0x40020424, 0x0004 Bytes, ...) -- CPU_ReadMem(4 bytes @ 0x40020424) - Data: 80 02 00 00  returns 0x00 (0000ms, 0684ms total)
T18B4 000:940 JLINK_ReadMem (0x40020400, 0x0004 Bytes, ...) -- CPU_ReadMem(4 bytes @ 0x40020400) - Data: 80 02 00 00  returns 0x00 (0001ms, 0685ms total)
T18B4 000:941 JLINK_ReadMem (0x40020400, 0x0004 Bytes, ...) -- CPU_ReadMem(4 bytes @ 0x40020400) - Data: 80 02 00 00  returns 0x00 (0000ms, 0685ms total)
T18B4 000:941 JLINK_ReadMem (0x40020400, 0x0004 Bytes, ...) -- CPU_ReadMem(4 bytes @ 0x40020400) - Data: 80 02 00 00  returns 0x00 (0000ms, 0685ms total)
T18B4 000:941 JLINK_ReadMem (0x40020400, 0x0004 Bytes, ...) -- CPU_ReadMem(4 bytes @ 0x40020400) - Data: 80 02 00 00  returns 0x00 (0000ms, 0685ms total)
T18B4 000:941 JLINK_ReadMem (0x40020400, 0x0004 Bytes, ...) -- CPU_ReadMem(4 bytes @ 0x40020400) - Data: 80 02 00 00  returns 0x00 (0001ms, 0686ms total)
T18B4 000:942 JLINK_ReadMem (0x40020400, 0x0004 Bytes, ...) -- CPU_ReadMem(4 bytes @ 0x40020400) - Data: 80 02 00 00  returns 0x00 (0000ms, 0686ms total)
T18B4 000:942 JLINK_ReadMem (0x40020400, 0x0004 Bytes, ...) -- CPU_ReadMem(4 bytes @ 0x40020400) - Data: 80 02 00 00  returns 0x00 (0000ms, 0686ms total)
T18B4 000:942 JLINK_ReadMem (0x40020400, 0x0004 Bytes, ...) -- CPU_ReadMem(4 bytes @ 0x40020400) - Data: 80 02 00 00  returns 0x00 (0000ms, 0686ms total)
T18B4 000:942 JLINK_ReadMem (0x40020400, 0x0004 Bytes, ...) -- CPU_ReadMem(4 bytes @ 0x40020400) - Data: 80 02 00 00  returns 0x00 (0001ms, 0687ms total)
T18B4 000:943 JLINK_ReadMem (0x40020400, 0x0004 Bytes, ...) -- CPU_ReadMem(4 bytes @ 0x40020400) - Data: 80 02 00 00  returns 0x00 (0000ms, 0687ms total)
T18B4 000:943 JLINK_ReadMem (0x40020400, 0x0004 Bytes, ...) -- CPU_ReadMem(4 bytes @ 0x40020400) - Data: 80 02 00 00  returns 0x00 (0000ms, 0687ms total)
T18B4 000:943 JLINK_ReadMem (0x40020400, 0x0004 Bytes, ...) -- CPU_ReadMem(4 bytes @ 0x40020400) - Data: 80 02 00 00  returns 0x00 (0000ms, 0687ms total)
T18B4 000:943 JLINK_ReadMem (0x40020400, 0x0004 Bytes, ...) -- CPU_ReadMem(4 bytes @ 0x40020400) - Data: 80 02 00 00  returns 0x00 (0001ms, 0688ms total)
T18B4 000:944 JLINK_ReadMem (0x40020400, 0x0004 Bytes, ...) -- CPU_ReadMem(4 bytes @ 0x40020400) - Data: 80 02 00 00  returns 0x00 (0000ms, 0688ms total)
T18B4 000:944 JLINK_ReadMem (0x40020400, 0x0004 Bytes, ...) -- CPU_ReadMem(4 bytes @ 0x40020400) - Data: 80 02 00 00  returns 0x00 (0000ms, 0688ms total)
T18B4 000:944 JLINK_ReadMem (0x40020400, 0x0004 Bytes, ...) -- CPU_ReadMem(4 bytes @ 0x40020400) - Data: 80 02 00 00  returns 0x00 (0000ms, 0688ms total)
T18B4 000:944 JLINK_ReadMem (0x40020400, 0x0004 Bytes, ...) -- CPU_ReadMem(4 bytes @ 0x40020400) - Data: 80 02 00 00  returns 0x00 (0001ms, 0689ms total)
T18B4 000:945 JLINK_ReadMem (0x40020404, 0x0004 Bytes, ...) -- CPU_ReadMem(4 bytes @ 0x40020404) - Data: 80 02 00 00  returns 0x00 (0000ms, 0689ms total)
T18B4 000:945 JLINK_ReadMem (0x40020404, 0x0004 Bytes, ...) -- CPU_ReadMem(4 bytes @ 0x40020404) - Data: 80 02 00 00  returns 0x00 (0000ms, 0689ms total)
T18B4 000:945 JLINK_ReadMem (0x40020404, 0x0004 Bytes, ...) -- CPU_ReadMem(4 bytes @ 0x40020404) - Data: 80 02 00 00  returns 0x00 (0000ms, 0689ms total)
T18B4 000:945 JLINK_ReadMem (0x40020404, 0x0004 Bytes, ...) -- CPU_ReadMem(4 bytes @ 0x40020404) - Data: 80 02 00 00  returns 0x00 (0001ms, 0690ms total)
T18B4 000:946 JLINK_ReadMem (0x40020404, 0x0004 Bytes, ...) -- CPU_ReadMem(4 bytes @ 0x40020404) - Data: 80 02 00 00  returns 0x00 (0000ms, 0690ms total)
T18B4 000:946 JLINK_ReadMem (0x40020404, 0x0004 Bytes, ...) -- CPU_ReadMem(4 bytes @ 0x40020404) - Data: 80 02 00 00  returns 0x00 (0000ms, 0690ms total)
T18B4 000:946 JLINK_ReadMem (0x40020404, 0x0004 Bytes, ...) -- CPU_ReadMem(4 bytes @ 0x40020404) - Data: 80 02 00 00  returns 0x00 (0000ms, 0690ms total)
T18B4 000:946 JLINK_ReadMem (0x40020404, 0x0004 Bytes, ...) -- CPU_ReadMem(4 bytes @ 0x40020404) - Data: 80 02 00 00  returns 0x00 (0001ms, 0691ms total)
T18B4 000:947 JLINK_ReadMem (0x40020404, 0x0004 Bytes, ...) -- CPU_ReadMem(4 bytes @ 0x40020404) - Data: 80 02 00 00  returns 0x00 (0000ms, 0691ms total)
T18B4 000:947 JLINK_ReadMem (0x40020404, 0x0004 Bytes, ...) -- CPU_ReadMem(4 bytes @ 0x40020404) - Data: 80 02 00 00  returns 0x00 (0000ms, 0691ms total)
T18B4 000:947 JLINK_ReadMem (0x40020404, 0x0004 Bytes, ...) -- CPU_ReadMem(4 bytes @ 0x40020404) - Data: 80 02 00 00  returns 0x00 (0000ms, 0691ms total)
T18B4 000:947 JLINK_ReadMem (0x40020404, 0x0004 Bytes, ...) -- CPU_ReadMem(4 bytes @ 0x40020404) - Data: 80 02 00 00  returns 0x00 (0001ms, 0692ms total)
T18B4 000:948 JLINK_ReadMem (0x40020404, 0x0004 Bytes, ...) -- CPU_ReadMem(4 bytes @ 0x40020404) - Data: 80 02 00 00  returns 0x00 (0000ms, 0692ms total)
T18B4 000:948 JLINK_ReadMem (0x40020404, 0x0004 Bytes, ...) -- CPU_ReadMem(4 bytes @ 0x40020404) - Data: 80 02 00 00  returns 0x00 (0000ms, 0692ms total)
T18B4 000:948 JLINK_ReadMem (0x40020404, 0x0004 Bytes, ...) -- CPU_ReadMem(4 bytes @ 0x40020404) - Data: 80 02 00 00  returns 0x00 (0000ms, 0692ms total)
T18B4 000:948 JLINK_ReadMem (0x40020404, 0x0004 Bytes, ...) -- CPU_ReadMem(4 bytes @ 0x40020404) - Data: 80 02 00 00  returns 0x00 (0001ms, 0693ms total)
T18B4 000:949 JLINK_ReadMem (0x40020404, 0x0004 Bytes, ...) -- CPU_ReadMem(4 bytes @ 0x40020404) - Data: 80 02 00 00  returns 0x00 (0000ms, 0693ms total)
T18B4 000:949 JLINK_ReadMem (0x40020408, 0x0004 Bytes, ...) -- CPU_ReadMem(4 bytes @ 0x40020408) - Data: 80 02 00 00  returns 0x00 (0000ms, 0693ms total)
T18B4 000:949 JLINK_ReadMem (0x40020408, 0x0004 Bytes, ...) -- CPU_ReadMem(4 bytes @ 0x40020408) - Data: 80 02 00 00  returns 0x00 (0000ms, 0693ms total)
T18B4 000:949 JLINK_ReadMem (0x40020408, 0x0004 Bytes, ...) -- CPU_ReadMem(4 bytes @ 0x40020408) - Data: 80 02 00 00  returns 0x00 (0001ms, 0694ms total)
T18B4 000:950 JLINK_ReadMem (0x40020408, 0x0004 Bytes, ...) -- CPU_ReadMem(4 bytes @ 0x40020408) - Data: 80 02 00 00  returns 0x00 (0000ms, 0694ms total)
T18B4 000:950 JLINK_ReadMem (0x40020408, 0x0004 Bytes, ...) -- CPU_ReadMem(4 bytes @ 0x40020408) - Data: 80 02 00 00  returns 0x00 (0000ms, 0694ms total)
T18B4 000:950 JLINK_ReadMem (0x40020408, 0x0004 Bytes, ...) -- CPU_ReadMem(4 bytes @ 0x40020408) - Data: 80 02 00 00  returns 0x00 (0000ms, 0694ms total)
T18B4 000:950 JLINK_ReadMem (0x40020408, 0x0004 Bytes, ...) -- CPU_ReadMem(4 bytes @ 0x40020408) - Data: 80 02 00 00  returns 0x00 (0001ms, 0695ms total)
T18B4 000:951 JLINK_ReadMem (0x40020408, 0x0004 Bytes, ...) -- CPU_ReadMem(4 bytes @ 0x40020408) - Data: 80 02 00 00  returns 0x00 (0000ms, 0695ms total)
T18B4 000:951 JLINK_ReadMem (0x40020408, 0x0004 Bytes, ...) -- CPU_ReadMem(4 bytes @ 0x40020408) - Data: 80 02 00 00  returns 0x00 (0000ms, 0695ms total)
T18B4 000:951 JLINK_ReadMem (0x40020408, 0x0004 Bytes, ...) -- CPU_ReadMem(4 bytes @ 0x40020408) - Data: 80 02 00 00  returns 0x00 (0000ms, 0695ms total)
T18B4 000:951 JLINK_ReadMem (0x40020408, 0x0004 Bytes, ...) -- CPU_ReadMem(4 bytes @ 0x40020408) - Data: 80 02 00 00  returns 0x00 (0001ms, 0696ms total)
T18B4 000:952 JLINK_ReadMem (0x40020408, 0x0004 Bytes, ...) -- CPU_ReadMem(4 bytes @ 0x40020408) - Data: 80 02 00 00  returns 0x00 (0000ms, 0696ms total)
T18B4 000:952 JLINK_ReadMem (0x40020408, 0x0004 Bytes, ...) -- CPU_ReadMem(4 bytes @ 0x40020408) - Data: 80 02 00 00  returns 0x00 (0000ms, 0696ms total)
T18B4 000:952 JLINK_ReadMem (0x40020408, 0x0004 Bytes, ...) -- CPU_ReadMem(4 bytes @ 0x40020408) - Data: 80 02 00 00  returns 0x00 (0000ms, 0696ms total)
T18B4 000:952 JLINK_ReadMem (0x40020408, 0x0004 Bytes, ...) -- CPU_ReadMem(4 bytes @ 0x40020408) - Data: 80 02 00 00  returns 0x00 (0001ms, 0697ms total)
T18B4 000:953 JLINK_ReadMem (0x40020408, 0x0004 Bytes, ...) -- CPU_ReadMem(4 bytes @ 0x40020408) - Data: 80 02 00 00  returns 0x00 (0000ms, 0697ms total)
T18B4 000:953 JLINK_ReadMem (0x40020408, 0x0004 Bytes, ...) -- CPU_ReadMem(4 bytes @ 0x40020408) - Data: 80 02 00 00  returns 0x00 (0000ms, 0697ms total)
T18B4 000:953 JLINK_ReadMem (0x4002040C, 0x0004 Bytes, ...) -- CPU_ReadMem(4 bytes @ 0x4002040C) - Data: 80 02 00 00  returns 0x00 (0000ms, 0697ms total)
T18B4 000:953 JLINK_ReadMem (0x4002040C, 0x0004 Bytes, ...) -- CPU_ReadMem(4 bytes @ 0x4002040C) - Data: 80 02 00 00  returns 0x00 (0001ms, 0698ms total)
T18B4 000:954 JLINK_ReadMem (0x4002040C, 0x0004 Bytes, ...) -- CPU_ReadMem(4 bytes @ 0x4002040C) - Data: 80 02 00 00  returns 0x00 (0000ms, 0698ms total)
T18B4 000:954 JLINK_ReadMem (0x4002040C, 0x0004 Bytes, ...) -- CPU_ReadMem(4 bytes @ 0x4002040C) - Data: 80 02 00 00  returns 0x00 (0000ms, 0698ms total)
T18B4 000:954 JLINK_ReadMem (0x4002040C, 0x0004 Bytes, ...) -- CPU_ReadMem(4 bytes @ 0x4002040C) - Data: 80 02 00 00  returns 0x00 (0000ms, 0698ms total)
T18B4 000:954 JLINK_ReadMem (0x4002040C, 0x0004 Bytes, ...) -- CPU_ReadMem(4 bytes @ 0x4002040C) - Data: 80 02 00 00  returns 0x00 (0001ms, 0699ms total)
T18B4 000:955 JLINK_ReadMem (0x4002040C, 0x0004 Bytes, ...) -- CPU_ReadMem(4 bytes @ 0x4002040C) - Data: 80 02 00 00  returns 0x00 (0000ms, 0699ms total)
T18B4 000:955 JLINK_ReadMem (0x4002040C, 0x0004 Bytes, ...) -- CPU_ReadMem(4 bytes @ 0x4002040C) - Data: 80 02 00 00  returns 0x00 (0000ms, 0699ms total)
T18B4 000:955 JLINK_ReadMem (0x4002040C, 0x0004 Bytes, ...) -- CPU_ReadMem(4 bytes @ 0x4002040C) - Data: 80 02 00 00  returns 0x00 (0000ms, 0699ms total)
T18B4 000:955 JLINK_ReadMem (0x4002040C, 0x0004 Bytes, ...) -- CPU_ReadMem(4 bytes @ 0x4002040C) - Data: 80 02 00 00  returns 0x00 (0001ms, 0700ms total)
T18B4 000:956 JLINK_ReadMem (0x4002040C, 0x0004 Bytes, ...) -- CPU_ReadMem(4 bytes @ 0x4002040C) - Data: 80 02 00 00  returns 0x00 (0000ms, 0700ms total)
T18B4 000:956 JLINK_ReadMem (0x4002040C, 0x0004 Bytes, ...) -- CPU_ReadMem(4 bytes @ 0x4002040C) - Data: 80 02 00 00  returns 0x00 (0000ms, 0700ms total)
T18B4 000:956 JLINK_ReadMem (0x4002040C, 0x0004 Bytes, ...) -- CPU_ReadMem(4 bytes @ 0x4002040C) - Data: 80 02 00 00  returns 0x00 (0001ms, 0701ms total)
T18B4 000:957 JLINK_ReadMem (0x4002040C, 0x0004 Bytes, ...) -- CPU_ReadMem(4 bytes @ 0x4002040C) - Data: 80 02 00 00  returns 0x00 (0000ms, 0701ms total)
T18B4 000:957 JLINK_ReadMem (0x4002040C, 0x0004 Bytes, ...) -- CPU_ReadMem(4 bytes @ 0x4002040C) - Data: 80 02 00 00  returns 0x00 (0001ms, 0702ms total)
T18B4 000:958 JLINK_ReadMem (0x4002040C, 0x0004 Bytes, ...) -- CPU_ReadMem(4 bytes @ 0x4002040C) - Data: 80 02 00 00  returns 0x00 (0000ms, 0702ms total)
T18B4 000:958 JLINK_ReadMem (0x4002040C, 0x0004 Bytes, ...) -- CPU_ReadMem(4 bytes @ 0x4002040C) - Data: 80 02 00 00  returns 0x00 (0000ms, 0702ms total)
T18B4 000:959 JLINK_ReadMem (0x40020410, 0x0004 Bytes, ...) -- CPU_ReadMem(4 bytes @ 0x40020410) - Data: 80 02 00 00  returns 0x00 (0000ms, 0702ms total)
T18B4 000:959 JLINK_ReadMem (0x40020410, 0x0004 Bytes, ...) -- CPU_ReadMem(4 bytes @ 0x40020410) - Data: 80 02 00 00  returns 0x00 (0001ms, 0703ms total)
T18B4 000:960 JLINK_ReadMem (0x40020410, 0x0004 Bytes, ...) -- CPU_ReadMem(4 bytes @ 0x40020410) - Data: 80 02 00 00  returns 0x00 (0000ms, 0703ms total)
T18B4 000:960 JLINK_ReadMem (0x40020410, 0x0004 Bytes, ...) -- CPU_ReadMem(4 bytes @ 0x40020410) - Data: 80 02 00 00  returns 0x00 (0001ms, 0704ms total)
T18B4 000:961 JLINK_ReadMem (0x40020410, 0x0004 Bytes, ...) -- CPU_ReadMem(4 bytes @ 0x40020410) - Data: 80 02 00 00  returns 0x00 (0000ms, 0704ms total)
T18B4 000:961 JLINK_ReadMem (0x40020410, 0x0004 Bytes, ...) -- CPU_ReadMem(4 bytes @ 0x40020410) - Data: 80 02 00 00  returns 0x00 (0001ms, 0705ms total)
T18B4 000:962 JLINK_ReadMem (0x40020410, 0x0004 Bytes, ...) -- CPU_ReadMem(4 bytes @ 0x40020410) - Data: 80 02 00 00  returns 0x00 (0000ms, 0705ms total)
T18B4 000:962 JLINK_ReadMem (0x40020410, 0x0004 Bytes, ...) -- CPU_ReadMem(4 bytes @ 0x40020410) - Data: 80 02 00 00  returns 0x00 (0001ms, 0706ms total)
T18B4 000:963 JLINK_ReadMem (0x40020410, 0x0004 Bytes, ...) -- CPU_ReadMem(4 bytes @ 0x40020410) - Data: 80 02 00 00  returns 0x00 (0000ms, 0706ms total)
T18B4 000:963 JLINK_ReadMem (0x40020410, 0x0004 Bytes, ...) -- CPU_ReadMem(4 bytes @ 0x40020410) - Data: 80 02 00 00  returns 0x00 (0001ms, 0707ms total)
T18B4 000:964 JLINK_ReadMem (0x40020410, 0x0004 Bytes, ...) -- CPU_ReadMem(4 bytes @ 0x40020410) - Data: 80 02 00 00  returns 0x00 (0000ms, 0707ms total)
T18B4 000:964 JLINK_ReadMem (0x40020410, 0x0004 Bytes, ...) -- CPU_ReadMem(4 bytes @ 0x40020410) - Data: 80 02 00 00  returns 0x00 (0000ms, 0707ms total)
T18B4 000:964 JLINK_ReadMem (0x40020410, 0x0004 Bytes, ...) -- CPU_ReadMem(4 bytes @ 0x40020410) - Data: 80 02 00 00  returns 0x00 (0001ms, 0708ms total)
T18B4 000:965 JLINK_ReadMem (0x40020410, 0x0004 Bytes, ...) -- CPU_ReadMem(4 bytes @ 0x40020410) - Data: 80 02 00 00  returns 0x00 (0000ms, 0708ms total)
T18B4 000:965 JLINK_ReadMem (0x40020410, 0x0004 Bytes, ...) -- CPU_ReadMem(4 bytes @ 0x40020410) - Data: 80 02 00 00  returns 0x00 (0000ms, 0708ms total)
T18B4 000:965 JLINK_ReadMem (0x40020410, 0x0004 Bytes, ...) -- CPU_ReadMem(4 bytes @ 0x40020410) - Data: 80 02 00 00  returns 0x00 (0000ms, 0708ms total)
T18B4 000:965 JLINK_ReadMem (0x40020410, 0x0004 Bytes, ...) -- CPU_ReadMem(4 bytes @ 0x40020410) - Data: 80 02 00 00  returns 0x00 (0001ms, 0709ms total)
T18B4 000:966 JLINK_ReadMem (0x40020414, 0x0004 Bytes, ...) -- CPU_ReadMem(4 bytes @ 0x40020414) - Data: 80 02 00 00  returns 0x00 (0000ms, 0709ms total)
T18B4 000:966 JLINK_ReadMem (0x40020414, 0x0004 Bytes, ...) -- CPU_ReadMem(4 bytes @ 0x40020414) - Data: 80 02 00 00  returns 0x00 (0000ms, 0709ms total)
T18B4 000:966 JLINK_ReadMem (0x40020414, 0x0004 Bytes, ...) -- CPU_ReadMem(4 bytes @ 0x40020414) - Data: 80 02 00 00  returns 0x00 (0000ms, 0709ms total)
T18B4 000:966 JLINK_ReadMem (0x40020414, 0x0004 Bytes, ...) -- CPU_ReadMem(4 bytes @ 0x40020414) - Data: 80 02 00 00  returns 0x00 (0001ms, 0710ms total)
T18B4 000:967 JLINK_ReadMem (0x40020414, 0x0004 Bytes, ...) -- CPU_ReadMem(4 bytes @ 0x40020414) - Data: 80 02 00 00  returns 0x00 (0000ms, 0710ms total)
T18B4 000:967 JLINK_ReadMem (0x40020414, 0x0004 Bytes, ...) -- CPU_ReadMem(4 bytes @ 0x40020414) - Data: 80 02 00 00  returns 0x00 (0000ms, 0710ms total)
T18B4 000:967 JLINK_ReadMem (0x40020414, 0x0004 Bytes, ...) -- CPU_ReadMem(4 bytes @ 0x40020414) - Data: 80 02 00 00  returns 0x00 (0000ms, 0710ms total)
T18B4 000:967 JLINK_ReadMem (0x40020414, 0x0004 Bytes, ...) -- CPU_ReadMem(4 bytes @ 0x40020414) - Data: 80 02 00 00  returns 0x00 (0001ms, 0711ms total)
T18B4 000:968 JLINK_ReadMem (0x40020414, 0x0004 Bytes, ...) -- CPU_ReadMem(4 bytes @ 0x40020414) - Data: 80 02 00 00  returns 0x00 (0000ms, 0711ms total)
T18B4 000:968 JLINK_ReadMem (0x40020414, 0x0004 Bytes, ...) -- CPU_ReadMem(4 bytes @ 0x40020414) - Data: 80 02 00 00  returns 0x00 (0000ms, 0711ms total)
T18B4 000:968 JLINK_ReadMem (0x40020414, 0x0004 Bytes, ...) -- CPU_ReadMem(4 bytes @ 0x40020414) - Data: 80 02 00 00  returns 0x00 (0000ms, 0711ms total)
T18B4 000:968 JLINK_ReadMem (0x40020414, 0x0004 Bytes, ...) -- CPU_ReadMem(4 bytes @ 0x40020414) - Data: 80 02 00 00  returns 0x00 (0001ms, 0712ms total)
T18B4 000:969 JLINK_ReadMem (0x40020414, 0x0004 Bytes, ...) -- CPU_ReadMem(4 bytes @ 0x40020414) - Data: 80 02 00 00  returns 0x00 (0000ms, 0712ms total)
T18B4 000:969 JLINK_ReadMem (0x40020414, 0x0004 Bytes, ...) -- CPU_ReadMem(4 bytes @ 0x40020414) - Data: 80 02 00 00  returns 0x00 (0000ms, 0712ms total)
T18B4 000:969 JLINK_ReadMem (0x40020414, 0x0004 Bytes, ...) -- CPU_ReadMem(4 bytes @ 0x40020414) - Data: 80 02 00 00  returns 0x00 (0000ms, 0712ms total)
T18B4 000:969 JLINK_ReadMem (0x40020414, 0x0004 Bytes, ...) -- CPU_ReadMem(4 bytes @ 0x40020414) - Data: 80 02 00 00  returns 0x00 (0001ms, 0713ms total)
T18B4 000:970 JLINK_ReadMem (0x40020414, 0x0004 Bytes, ...) -- CPU_ReadMem(4 bytes @ 0x40020414) - Data: 80 02 00 00  returns 0x00 (0000ms, 0713ms total)
T18B4 000:970 JLINK_ReadMem (0x4002041C, 0x0004 Bytes, ...) -- CPU_ReadMem(4 bytes @ 0x4002041C) - Data: 80 02 00 00  returns 0x00 (0000ms, 0713ms total)
T18B4 000:970 JLINK_ReadMem (0x4002041C, 0x0004 Bytes, ...) -- CPU_ReadMem(4 bytes @ 0x4002041C) - Data: 80 02 00 00  returns 0x00 (0000ms, 0713ms total)
T18B4 000:971 JLINK_ReadMem (0x4002041C, 0x0004 Bytes, ...) -- CPU_ReadMem(4 bytes @ 0x4002041C) - Data: 80 02 00 00  returns 0x00 (0000ms, 0713ms total)
T18B4 000:971 JLINK_ReadMem (0x4002041C, 0x0004 Bytes, ...) -- CPU_ReadMem(4 bytes @ 0x4002041C) - Data: 80 02 00 00  returns 0x00 (0000ms, 0713ms total)
T18B4 000:971 JLINK_ReadMem (0x4002041C, 0x0004 Bytes, ...) -- CPU_ReadMem(4 bytes @ 0x4002041C) - Data: 80 02 00 00  returns 0x00 (0000ms, 0713ms total)
T18B4 000:971 JLINK_ReadMem (0x4002041C, 0x0004 Bytes, ...) -- CPU_ReadMem(4 bytes @ 0x4002041C) - Data: 80 02 00 00  returns 0x00 (0000ms, 0713ms total)
T18B4 000:972 JLINK_ReadMem (0x4002041C, 0x0004 Bytes, ...) -- CPU_ReadMem(4 bytes @ 0x4002041C) - Data: 80 02 00 00  returns 0x00 (0000ms, 0713ms total)
T18B4 000:972 JLINK_ReadMem (0x4002041C, 0x0004 Bytes, ...) -- CPU_ReadMem(4 bytes @ 0x4002041C) - Data: 80 02 00 00  returns 0x00 (0000ms, 0713ms total)
T18B4 000:972 JLINK_ReadMem (0x4002041C, 0x0004 Bytes, ...) -- CPU_ReadMem(4 bytes @ 0x4002041C) - Data: 80 02 00 00  returns 0x00 (0000ms, 0713ms total)
T18B4 000:972 JLINK_ReadMem (0x4002041C, 0x0004 Bytes, ...) -- CPU_ReadMem(4 bytes @ 0x4002041C) - Data: 80 02 00 00  returns 0x00 (0000ms, 0713ms total)
T18B4 000:973 JLINK_ReadMem (0x4002041C, 0x0004 Bytes, ...) -- CPU_ReadMem(4 bytes @ 0x4002041C) - Data: 80 02 00 00  returns 0x00 (0000ms, 0713ms total)
T18B4 000:973 JLINK_ReadMem (0x4002041C, 0x0004 Bytes, ...) -- CPU_ReadMem(4 bytes @ 0x4002041C) - Data: 80 02 00 00  returns 0x00 (0000ms, 0713ms total)
T18B4 000:973 JLINK_ReadMem (0x4002041C, 0x0004 Bytes, ...) -- CPU_ReadMem(4 bytes @ 0x4002041C) - Data: 80 02 00 00  returns 0x00 (0000ms, 0713ms total)
T18B4 000:973 JLINK_ReadMem (0x4002041C, 0x0004 Bytes, ...) -- CPU_ReadMem(4 bytes @ 0x4002041C) - Data: 80 02 00 00  returns 0x00 (0000ms, 0713ms total)
T18B4 000:974 JLINK_ReadMem (0x4002041C, 0x0004 Bytes, ...) -- CPU_ReadMem(4 bytes @ 0x4002041C) - Data: 80 02 00 00  returns 0x00 (0000ms, 0713ms total)
